T1DA6C 000:009.140   SEGGER J-Link V7.00 Log File
T1DA6C 000:009.243   DLL Compiled: Apr  8 2021 14:30:05
T1DA6C 000:009.248   Logging started @ 2024-01-04 14:08
T1DA6C 000:009.253 - 9.256ms
T1DA6C 000:009.262 JLINK_SetWarnOutHandler(...)
T1DA6C 000:009.269 - 0.008ms
T1DA6C 000:009.275 JLINK_OpenEx(...)
T1DA6C 000:011.232   Firmware: J-Link V9 compiled May  7 2021 16:26:12
T1DA6C 000:011.684   Firmware: J-Link V9 compiled May  7 2021 16:26:12
T1DA6C 000:011.833   Decompressing FW timestamp took 115 us
T1DA6C 000:020.266   Hardware: V9.40
T1DA6C 000:020.289   S/N: 69406426
T1DA6C 000:020.296   OEM: SEGGER
T1DA6C 000:020.304   Feature(s): RDI, GDB, FlashDL, FlashBP, JFlash
T1DA6C 000:021.557   TELNET listener socket opened on port 19021
T1DA6C 000:021.697   WEBSRV Starting webserver
T1DA6C 000:021.884   WEBSRV Webserver running on local port 19080
T1DA6C 000:021.895 - 12.622ms returns "O.K."
T1DA6C 000:021.912 JLINK_GetEmuCaps()
T1DA6C 000:021.918 - 0.029ms returns 0xB9FF7BBF
T1DA6C 000:021.956 JLINK_TIF_GetAvailable(...)
T1DA6C 000:022.192 - 0.243ms
T1DA6C 000:022.207 JLINK_SetErrorOutHandler(...)
T1DA6C 000:022.212 - 0.008ms
T1DA6C 000:022.242 JLINK_ExecCommand("ProjectFile = "D:\origin\MDK\Temperature_Humidity_Acquisition\Project\JLinkSettings.ini"", ...). 
T1DA6C 000:029.627   Ref file found at: E:\origin\MDK5.36\ARM\Segger\JLinkDevices.ref
T1DA6C 000:029.742   XML referenced by ref file: E:\origin\Program\JLink\JLinkDevices.xml
T1DA6C 000:030.407   E:\origin\Program\JLink\JLinkDevices.xml evaluated successfully.
T1DA6C 000:072.083 - 49.853ms returns 0x00
T1DA6C 000:077.175 JLINK_ExecCommand("Device = SWM341xE", ...). 
T1DA6C 000:084.181   Device "SWM341XE" selected.
T1DA6C 000:084.473 - 7.289ms returns 0x00
T1DA6C 000:084.493 JLINK_GetHardwareVersion()
T1DA6C 000:084.498 - 0.008ms returns 94000
T1DA6C 000:084.509 JLINK_GetDLLVersion()
T1DA6C 000:084.514 - 0.007ms returns 70000
T1DA6C 000:084.520 JLINK_GetOEMString(...)
T1DA6C 000:084.527 JLINK_GetFirmwareString(...)
T1DA6C 000:084.532 - 0.007ms
T1DA6C 000:101.321 JLINK_GetDLLVersion()
T1DA6C 000:101.342 - 0.023ms returns 70000
T1DA6C 000:101.349 JLINK_GetCompileDateTime()
T1DA6C 000:101.354 - 0.007ms
T1DA6C 000:107.244 JLINK_GetFirmwareString(...)
T1DA6C 000:107.257 - 0.016ms
T1DA6C 000:111.798 JLINK_GetHardwareVersion()
T1DA6C 000:111.808 - 0.013ms returns 94000
T1DA6C 000:116.385 JLINK_GetSN()
T1DA6C 000:116.400 - 0.017ms returns 69406426
T1DA6C 000:121.700 JLINK_GetOEMString(...)
T1DA6C 000:130.771 JLINK_TIF_Select(JLINKARM_TIF_SWD)
T1DA6C 000:131.715 - 0.953ms returns 0x00
T1DA6C 000:131.732 JLINK_HasError()
T1DA6C 000:131.746 JLINK_SetSpeed(5000)
T1DA6C 000:131.894 - 0.155ms
T1DA6C 000:131.909 JLINK_GetId()
T1DA6C 000:139.769   Found SW-DP with ID 0x1BE12AEB
T1DA6C 000:147.573   DPIDR: 0x1BE12AEB
T1DA6C 000:153.762   Scanning AP map to find all available APs
T1DA6C 000:159.017   AP[1]: Stopped AP scan as end of AP map has been reached
T1DA6C 000:163.439   AP[0]: AHB-AP (IDR: 0x1AEB0015)
T1DA6C 000:169.459   Iterating through AP map to find AHB-AP to use
T1DA6C 000:174.950   AP[0]: Core found
T1DA6C 000:179.489   AP[0]: AHB-AP ROM base: 0xE00FE000
T1DA6C 000:187.714   CPUID register: 0x630F1321. Implementer code: 0x63 (ARM China)
T1DA6C 000:192.397   Found STAR r0p1, Little endian.
T1DA6C 000:298.778   Identified core does not match configuration. (Found: STAR, Configured: Cortex-M33)
T1DA6C 000:299.244   -- Max. mem block: 0x00010E60
T1DA6C 000:299.705   CPU_ReadMem(4 bytes @ 0xE000EDF0)
T1DA6C 000:300.171   CPU_WriteMem(4 bytes @ 0xE000EDF0)
T1DA6C 000:300.598   CPU_ReadMem(4 bytes @ 0xE0002000)
T1DA6C 000:305.635   FPUnit: 8 code (BP) slots and 0 literal slots
T1DA6C 000:305.649   CPU_ReadMem(4 bytes @ 0xE000EDFC)
T1DA6C 000:306.113   CPU_WriteMem(4 bytes @ 0xE000EDFC)
T1DA6C 000:306.513   CPU_ReadMem(4 bytes @ 0xE0001000)
T1DA6C 000:307.268   CPU_WriteMem(4 bytes @ 0xE0001000)
T1DA6C 000:307.737   CPU_ReadMem(4 bytes @ 0xE000ED88)
T1DA6C 000:308.236   CPU_WriteMem(4 bytes @ 0xE000ED88)
T1DA6C 000:308.679   CPU_ReadMem(4 bytes @ 0xE000ED88)
T1DA6C 000:309.184   CPU_WriteMem(4 bytes @ 0xE000ED88)
T1DA6C 000:309.612   CPU_ReadMem(4 bytes @ 0xE000EFB8)
T1DA6C 000:314.794   Security extension: not implemented
T1DA6C 000:319.354   CoreSight components:
T1DA6C 000:323.919   ROMTbl[0] @ E00FE000
T1DA6C 000:323.936   CPU_ReadMem(64 bytes @ 0xE00FE000)
T1DA6C 000:324.642   CPU_ReadMem(32 bytes @ 0xE00FFFE0)
T1DA6C 000:330.694   ROMTbl[0][0]: E00FF000, CID: B105100D, PID: 001F5132 ROM Table
T1DA6C 000:335.211   ROMTbl[1] @ E00FF000
T1DA6C 000:335.234   CPU_ReadMem(64 bytes @ 0xE00FF000)
T1DA6C 000:336.183   CPU_ReadMem(32 bytes @ 0xE000EFE0)
T1DA6C 000:336.967   CPU_ReadMem(4 bytes @ 0xE000EFBC)
T1DA6C 000:337.733   CPU_ReadMem(4 bytes @ 0xE000EFCC)
T1DA6C 000:344.474   ROMTbl[1][0]: E000E000, CID: B105900D, PID: 001F5132 ???
T1DA6C 000:344.500   CPU_ReadMem(32 bytes @ 0xE0001FE0)
T1DA6C 000:345.054   CPU_ReadMem(4 bytes @ 0xE0001FBC)
T1DA6C 000:345.485   CPU_ReadMem(4 bytes @ 0xE0001FCC)
T1DA6C 000:350.565   ROMTbl[1][1]: E0001000, CID: B105900D, PID: 000F5132 DWT
T1DA6C 000:350.595   CPU_ReadMem(32 bytes @ 0xE0002FE0)
T1DA6C 000:351.511   CPU_ReadMem(4 bytes @ 0xE0002FBC)
T1DA6C 000:351.886   CPU_ReadMem(4 bytes @ 0xE0002FCC)
T1DA6C 000:358.985   ROMTbl[1][2]: E0002000, CID: B105900D, PID: 000F5132 FPB
T1DA6C 000:359.010   CPU_ReadMem(32 bytes @ 0xE0000FE0)
T1DA6C 000:359.603   CPU_ReadMem(4 bytes @ 0xE0000FBC)
T1DA6C 000:359.972   CPU_ReadMem(4 bytes @ 0xE0000FCC)
T1DA6C 000:364.915   ROMTbl[1][3]: E0000000, CID: B105900D, PID: 000F5132 ITM
T1DA6C 000:364.931   CPU_ReadMem(32 bytes @ 0xE0042FE0)
T1DA6C 000:365.506   CPU_ReadMem(4 bytes @ 0xE0042FBC)
T1DA6C 000:365.855   CPU_ReadMem(4 bytes @ 0xE0042FCC)
T1DA6C 000:371.005   ROMTbl[1][6]: E0042000, CID: B105900D, PID: 000F5132 CSS600-CTI
T1DA6C 000:371.021   CPU_ReadMem(32 bytes @ 0xE0040FE0)
T1DA6C 000:371.825   CPU_ReadMem(4 bytes @ 0xE0040FBC)
T1DA6C 000:372.252   CPU_ReadMem(4 bytes @ 0xE0040FCC)
T1DA6C 000:379.065   ROMTbl[0][1]: E0040000, CID: B105900D, PID: 000F5132 ???
T1DA6C 000:379.414 - 247.513ms returns 0x1BE12AEB
T1DA6C 000:379.435 JLINK_GetDLLVersion()
T1DA6C 000:379.440 - 0.007ms returns 70000
T1DA6C 000:379.447 JLINK_CORE_GetFound()
T1DA6C 000:379.452 - 0.007ms returns 0xE0400FF
T1DA6C 000:379.458 JLINK_GetDebugInfo(0x100 = JLINKARM_ROM_TABLE_ADDR_INDEX)
T1DA6C 000:379.473   Value=0xE00FE000
T1DA6C 000:379.480 - 0.024ms returns 0
T1DA6C 000:384.270 JLINK_GetDebugInfo(0x100 = JLINKARM_ROM_TABLE_ADDR_INDEX)
T1DA6C 000:384.289   Value=0xE00FE000
T1DA6C 000:384.296 - 0.028ms returns 0
T1DA6C 000:384.303 JLINK_GetDebugInfo(0x101 = JLINKARM_DEBUG_INFO_ETM_ADDR_INDEX)
T1DA6C 000:384.308   Value=0x00000000
T1DA6C 000:384.315 - 0.014ms returns 0
T1DA6C 000:384.321 JLINK_ReadMemEx(0xE0041FF0, 0x10 Bytes, Flags = 0x02000004)
T1DA6C 000:384.344   CPU_ReadMem(16 bytes @ 0xE0041FF0)
T1DA6C 000:385.204   Data:  00 00 00 00 00 00 00 00 00 00 00 00 00 00 00 00
T1DA6C 000:385.227 - 0.908ms returns 16 (0x10)
T1DA6C 000:385.239 JLINK_GetDebugInfo(0x102 = JLINKARM_DEBUG_INFO_MTB_ADDR_INDEX)
T1DA6C 000:385.245   Value=0x00000000
T1DA6C 000:385.252 - 0.015ms returns 0
T1DA6C 000:385.259 JLINK_GetDebugInfo(0x103 = JLINKARM_DEBUG_INFO_TPIU_ADDR_INDEX)
T1DA6C 000:385.263   Value=0x00000000
T1DA6C 000:385.270 - 0.014ms returns 0
T1DA6C 000:385.277 JLINK_ReadMemEx(0xE0040FF0, 0x10 Bytes, Flags = 0x02000004)
T1DA6C 000:385.290   CPU_ReadMem(16 bytes @ 0xE0040FF0)
T1DA6C 000:386.029   Data:  0D 00 00 00 90 00 00 00 05 00 00 00 B1 00 00 00
T1DA6C 000:386.052 - 0.778ms returns 16 (0x10)
T1DA6C 000:386.064 JLINK_GetDebugInfo(0x104 = JLINKARM_DEBUG_INFO_ITM_ADDR_INDEX)
T1DA6C 000:386.071   Value=0xE0000000
T1DA6C 000:386.078 - 0.015ms returns 0
T1DA6C 000:386.084 JLINK_GetDebugInfo(0x105 = JLINKARM_DEBUG_INFO_DWT_ADDR_INDEX)
T1DA6C 000:386.089   Value=0xE0001000
T1DA6C 000:386.096 - 0.014ms returns 0
T1DA6C 000:386.102 JLINK_GetDebugInfo(0x106 = JLINKARM_DEBUG_INFO_FPB_ADDR_INDEX)
T1DA6C 000:386.107   Value=0xE0002000
T1DA6C 000:386.160 - 0.061ms returns 0
T1DA6C 000:386.167 JLINK_GetDebugInfo(0x107 = JLINKARM_DEBUG_INFO_NVIC_ADDR_INDEX)
T1DA6C 000:386.172   Value=0xE000E000
T1DA6C 000:386.179 - 0.014ms returns 0
T1DA6C 000:386.185 JLINK_GetDebugInfo(0x10C = JLINKARM_DEBUG_INFO_DBG_ADDR_INDEX)
T1DA6C 000:386.190   Value=0xE000EDF0
T1DA6C 000:386.197 - 0.014ms returns 0
T1DA6C 000:386.221 JLINK_GetDebugInfo(0x01 = Unknown)
T1DA6C 000:386.226   Value=0x00000001
T1DA6C 000:386.233 - 0.014ms returns 0
T1DA6C 000:386.240 JLINK_ReadMemU32(0xE000ED00, 0x1 Items)
T1DA6C 000:386.253   CPU_ReadMem(4 bytes @ 0xE000ED00)
T1DA6C 000:387.014   Data:  21 13 0F 63
T1DA6C 000:387.038   Debug reg: CPUID
T1DA6C 000:387.046 - 0.808ms returns 1 (0x1)
T1DA6C 000:387.058 JLINK_GetDebugInfo(0x10F = JLINKARM_DEBUG_INFO_HAS_CORTEX_M_SECURITY_EXT_INDEX)
T1DA6C 000:387.064   Value=0x00000000
T1DA6C 000:387.071 - 0.015ms returns 0
T1DA6C 000:387.078 JLINK_HasError()
T1DA6C 000:387.085 JLINK_SetResetType(JLINKARM_CM3_RESET_TYPE_NORMAL)
T1DA6C 000:387.091 - 0.007ms returns JLINKARM_CM3_RESET_TYPE_NORMAL
T1DA6C 000:387.097 JLINK_Reset()
T1DA6C 000:387.118   CPU is running
T1DA6C 000:387.128   CPU_WriteMem(4 bytes @ 0xE000EDF0)
T1DA6C 000:387.876   CPU_ReadMem(4 bytes @ 0xE000ED44)
T1DA6C 000:388.280   CPU is running
T1DA6C 000:388.298   CPU_WriteMem(4 bytes @ 0xE000EDFC)
T1DA6C 000:393.840   Reset: Halt core after reset via DEMCR.VC_CORERESET.
T1DA6C 000:399.099   Reset: Reset device via AIRCR.SYSRESETREQ.
T1DA6C 000:399.119   CPU is running
T1DA6C 000:399.129   CPU_WriteMem(4 bytes @ 0xE000ED0C)
T1DA6C 000:451.801   CPU_ReadMem(4 bytes @ 0xE000EDF0)
T1DA6C 000:452.594   CPU_ReadMem(4 bytes @ 0xE000EDF0)
T1DA6C 000:453.038   CPU is running
T1DA6C 000:453.053   CPU_WriteMem(4 bytes @ 0xE000EDF0)
T1DA6C 000:453.521   CPU is running
T1DA6C 000:453.535   CPU_WriteMem(4 bytes @ 0xE000EDFC)
T1DA6C 000:459.491   CPU_ReadMem(4 bytes @ 0xE000EDF0)
T1DA6C 000:463.314   CPU_ReadMem(4 bytes @ 0xE000EE08)
T1DA6C 000:464.166   CPU_WriteMem(4 bytes @ 0xE0002000)
T1DA6C 000:464.683   CPU_ReadMem(4 bytes @ 0xE000EDFC)
T1DA6C 000:465.030   CPU_ReadMem(4 bytes @ 0xE0001000)
T1DA6C 000:465.363   CPU_ReadMem(4 bytes @ 0xE000EE08)
T1DA6C 000:465.757 - 78.699ms
T1DA6C 000:465.824 JLINK_Halt()
T1DA6C 000:465.829 - 0.008ms returns 0x00
T1DA6C 000:465.836 JLINK_ReadMemU32(0xE000EDF0, 0x1 Items)
T1DA6C 000:465.877   CPU_ReadMem(4 bytes @ 0xE000EDF0)
T1DA6C 000:466.157   Data:  03 00 03 00
T1DA6C 000:466.169   Debug reg: DHCSR
T1DA6C 000:466.176 - 0.342ms returns 1 (0x1)
T1DA6C 000:466.188 JLINK_WriteU32_64(0xE000EDF0, 0xA05F0003)
T1DA6C 000:466.210   Debug reg: DHCSR
T1DA6C 000:466.477   CPU_WriteMem(4 bytes @ 0xE000EDF0)
T1DA6C 000:466.822 - 0.641ms returns 0 (0x00000000)
T1DA6C 000:466.839 JLINK_WriteU32_64(0xE000EDFC, 0x01000000)
T1DA6C 000:466.845   Debug reg: DEMCR
T1DA6C 000:466.857   CPU_WriteMem(4 bytes @ 0xE000EDFC)
T1DA6C 000:467.222 - 0.400ms returns 0 (0x00000000)
T1DA6C 000:488.231 JLINK_GetHWStatus(...)
T1DA6C 000:488.483 - 0.259ms returns 0
T1DA6C 000:501.799 JLINK_GetNumBPUnits(Type = 0xFFFFFF00)
T1DA6C 000:501.817 - 0.020ms returns 0x08
T1DA6C 000:501.824 JLINK_GetNumBPUnits(Type = 0xF0)
T1DA6C 000:501.829 - 0.007ms returns 0x2000
T1DA6C 000:501.836 JLINK_GetNumWPUnits()
T1DA6C 000:501.841 - 0.007ms returns 4
T1DA6C 000:517.393 JLINK_GetSpeed()
T1DA6C 000:517.413 - 0.023ms returns 4000
T1DA6C 000:526.280 JLINK_ReadMemU32(0xE000E004, 0x1 Items)
T1DA6C 000:526.302   CPU_ReadMem(4 bytes @ 0xE000E004)
T1DA6C 000:526.766   Data:  02 00 00 00
T1DA6C 000:526.785 - 0.507ms returns 1 (0x1)
T1DA6C 000:526.799 JLINK_Halt()
T1DA6C 000:526.804 - 0.008ms returns 0x00
T1DA6C 000:526.811 JLINK_IsHalted()
T1DA6C 000:526.823 - 0.014ms returns TRUE
T1DA6C 000:529.478 JLINK_WriteMem(0x20000000, 0x9F4 Bytes, ...)
T1DA6C 000:529.488   Data:  00 BE 0A E0 0D 78 2D 06 68 40 08 24 40 00 00 D3 ...
T1DA6C 000:529.688   CPU_WriteMem(2548 bytes @ 0x20000000)
T1DA6C 000:542.175 - 12.715ms returns 0x9F4
T1DA6C 000:542.269 JLINK_HasError()
T1DA6C 000:542.286 JLINK_WriteReg(R0, 0x00000000)
T1DA6C 000:542.305   CPU_ReadMem(4 bytes @ 0xE000EE08)
T1DA6C 000:542.817 - 0.549ms returns 0
T1DA6C 000:542.845 JLINK_WriteReg(R1, 0x00B71B00)
T1DA6C 000:542.857 - 0.014ms returns 0
T1DA6C 000:542.864 JLINK_WriteReg(R2, 0x00000001)
T1DA6C 000:542.870 - 0.008ms returns 0
T1DA6C 000:542.876 JLINK_WriteReg(R3, 0x00000000)
T1DA6C 000:542.882 - 0.007ms returns 0
T1DA6C 000:542.888 JLINK_WriteReg(R4, 0x00000000)
T1DA6C 000:542.893 - 0.007ms returns 0
T1DA6C 000:542.900 JLINK_WriteReg(R5, 0x00000000)
T1DA6C 000:542.905 - 0.007ms returns 0
T1DA6C 000:542.911 JLINK_WriteReg(R6, 0x00000000)
T1DA6C 000:542.917 - 0.007ms returns 0
T1DA6C 000:542.923 JLINK_WriteReg(R7, 0x00000000)
T1DA6C 000:542.928 - 0.007ms returns 0
T1DA6C 000:542.935 JLINK_WriteReg(R8, 0x00000000)
T1DA6C 000:542.948 - 0.015ms returns 0
T1DA6C 000:542.954 JLINK_WriteReg(R9, 0x200009D8)
T1DA6C 000:542.960 - 0.007ms returns 0
T1DA6C 000:542.966 JLINK_WriteReg(R10, 0x00000000)
T1DA6C 000:542.971 - 0.007ms returns 0
T1DA6C 000:542.978 JLINK_WriteReg(R11, 0x00000000)
T1DA6C 000:542.983 - 0.007ms returns 0
T1DA6C 000:542.989 JLINK_WriteReg(R12, 0x00000000)
T1DA6C 000:542.995 - 0.008ms returns 0
T1DA6C 000:543.005 JLINK_WriteReg(R13 (SP), 0x20004000)
T1DA6C 000:543.011 - 0.009ms returns 0
T1DA6C 000:543.018 JLINK_WriteReg(R14, 0x20000001)
T1DA6C 000:543.023 - 0.007ms returns 0
T1DA6C 000:543.030 JLINK_WriteReg(R15 (PC), 0x20000038)
T1DA6C 000:543.038 - 0.010ms returns 0
T1DA6C 000:543.044 JLINK_WriteReg(XPSR, 0x01000000)
T1DA6C 000:543.050 - 0.008ms returns 0
T1DA6C 000:543.056 JLINK_WriteReg(MSP, 0x20004000)
T1DA6C 000:543.062 - 0.007ms returns 0
T1DA6C 000:543.068 JLINK_WriteReg(PSP, 0x20004000)
T1DA6C 000:543.073 - 0.007ms returns 0
T1DA6C 000:543.080 JLINK_WriteReg(CFBP, 0x00000000)
T1DA6C 000:543.085 - 0.007ms returns 0
T1DA6C 000:543.092 JLINK_SetBPEx(Addr = 0x20000000, Type = 0xFFFFFFF2)
T1DA6C 000:543.099 - 0.009ms returns 0x00000001
T1DA6C 000:543.106 JLINK_Go()
T1DA6C 000:543.115   CPU_WriteMem(4 bytes @ 0xE0002000)
T1DA6C 000:543.654   CPU_ReadMem(4 bytes @ 0xE0001000)
T1DA6C 000:544.010   CPU_WriteMem(4 bytes @ 0xE0002008)
T1DA6C 000:544.025   CPU_WriteMem(4 bytes @ 0xE000200C)
T1DA6C 000:544.033   CPU_WriteMem(4 bytes @ 0xE0002010)
T1DA6C 000:544.040   CPU_WriteMem(4 bytes @ 0xE0002014)
T1DA6C 000:544.047   CPU_WriteMem(4 bytes @ 0xE0002018)
T1DA6C 000:544.055   CPU_WriteMem(4 bytes @ 0xE000201C)
T1DA6C 000:544.062   CPU_WriteMem(4 bytes @ 0xE0002020)
T1DA6C 000:544.069   CPU_WriteMem(4 bytes @ 0xE0002024)
T1DA6C 000:545.854   CPU_WriteMem(4 bytes @ 0xE0001004)
T1DA6C 000:549.062 - 5.998ms
T1DA6C 000:549.113 JLINK_IsHalted()
T1DA6C 000:551.874 - 2.778ms returns TRUE
T1DA6C 000:551.901 JLINK_ReadReg(R15 (PC))
T1DA6C 000:551.911   CPU_ReadMem(4 bytes @ 0xE000EE08)
T1DA6C 000:552.421 - 0.538ms returns 0x20000000
T1DA6C 000:552.449 JLINK_ClrBPEx(BPHandle = 0x00000001)
T1DA6C 000:552.460 - 0.013ms returns 0x00
T1DA6C 000:552.467 JLINK_ReadReg(R0)
T1DA6C 000:552.474 - 0.009ms returns 0x00000000
T1DA6C 000:552.800 JLINK_HasError()
T1DA6C 000:552.813 JLINK_WriteReg(R0, 0x00000000)
T1DA6C 000:552.822 - 0.011ms returns 0
T1DA6C 000:552.829 JLINK_WriteReg(R1, 0x00001000)
T1DA6C 000:552.834 - 0.008ms returns 0
T1DA6C 000:552.841 JLINK_WriteReg(R2, 0x000000FF)
T1DA6C 000:552.846 - 0.007ms returns 0
T1DA6C 000:552.852 JLINK_WriteReg(R3, 0x00000000)
T1DA6C 000:552.858 - 0.008ms returns 0
T1DA6C 000:552.864 JLINK_WriteReg(R4, 0x00000000)
T1DA6C 000:552.870 - 0.007ms returns 0
T1DA6C 000:552.876 JLINK_WriteReg(R5, 0x00000000)
T1DA6C 000:552.882 - 0.008ms returns 0
T1DA6C 000:552.888 JLINK_WriteReg(R6, 0x00000000)
T1DA6C 000:552.894 - 0.007ms returns 0
T1DA6C 000:552.900 JLINK_WriteReg(R7, 0x00000000)
T1DA6C 000:552.905 - 0.007ms returns 0
T1DA6C 000:552.912 JLINK_WriteReg(R8, 0x00000000)
T1DA6C 000:552.917 - 0.007ms returns 0
T1DA6C 000:552.924 JLINK_WriteReg(R9, 0x200009D8)
T1DA6C 000:552.929 - 0.008ms returns 0
T1DA6C 000:552.935 JLINK_WriteReg(R10, 0x00000000)
T1DA6C 000:552.949 - 0.016ms returns 0
T1DA6C 000:552.956 JLINK_WriteReg(R11, 0x00000000)
T1DA6C 000:552.961 - 0.007ms returns 0
T1DA6C 000:552.968 JLINK_WriteReg(R12, 0x00000000)
T1DA6C 000:552.973 - 0.007ms returns 0
T1DA6C 000:552.979 JLINK_WriteReg(R13 (SP), 0x20004000)
T1DA6C 000:552.985 - 0.008ms returns 0
T1DA6C 000:552.992 JLINK_WriteReg(R14, 0x20000001)
T1DA6C 000:552.998 - 0.011ms returns 0
T1DA6C 000:553.008 JLINK_WriteReg(R15 (PC), 0x20000020)
T1DA6C 000:553.014 - 0.008ms returns 0
T1DA6C 000:553.020 JLINK_WriteReg(XPSR, 0x01000000)
T1DA6C 000:553.026 - 0.008ms returns 0
T1DA6C 000:553.032 JLINK_WriteReg(MSP, 0x20004000)
T1DA6C 000:553.037 - 0.007ms returns 0
T1DA6C 000:553.044 JLINK_WriteReg(PSP, 0x20004000)
T1DA6C 000:553.049 - 0.007ms returns 0
T1DA6C 000:553.055 JLINK_WriteReg(CFBP, 0x00000000)
T1DA6C 000:553.061 - 0.008ms returns 0
T1DA6C 000:553.067 JLINK_SetBPEx(Addr = 0x20000000, Type = 0xFFFFFFF2)
T1DA6C 000:553.074 - 0.009ms returns 0x00000002
T1DA6C 000:553.081 JLINK_Go()
T1DA6C 000:553.106   CPU_WriteMem(4 bytes @ 0xE0002000)
T1DA6C 000:553.651   CPU_ReadMem(4 bytes @ 0xE0001000)
T1DA6C 000:556.763 - 3.700ms
T1DA6C 000:556.791 JLINK_IsHalted()
T1DA6C 000:559.648 - 2.875ms returns TRUE
T1DA6C 000:559.675 JLINK_ReadReg(R15 (PC))
T1DA6C 000:559.685   CPU_ReadMem(4 bytes @ 0xE000EE08)
T1DA6C 000:560.070 - 0.403ms returns 0x20000000
T1DA6C 000:560.085 JLINK_ClrBPEx(BPHandle = 0x00000002)
T1DA6C 000:560.093 - 0.010ms returns 0x00
T1DA6C 000:560.100 JLINK_ReadReg(R0)
T1DA6C 000:560.107 - 0.009ms returns 0x00000001
T1DA6C 000:560.115 JLINK_HasError()
T1DA6C 000:560.122 JLINK_WriteReg(R0, 0x00000000)
T1DA6C 000:560.128 - 0.008ms returns 0
T1DA6C 000:560.135 JLINK_WriteReg(R1, 0x00001000)
T1DA6C 000:560.140 - 0.007ms returns 0
T1DA6C 000:560.146 JLINK_WriteReg(R2, 0x000000FF)
T1DA6C 000:560.152 - 0.007ms returns 0
T1DA6C 000:560.158 JLINK_WriteReg(R3, 0x00000000)
T1DA6C 000:560.163 - 0.007ms returns 0
T1DA6C 000:560.170 JLINK_WriteReg(R4, 0x00000000)
T1DA6C 000:560.175 - 0.007ms returns 0
T1DA6C 000:560.181 JLINK_WriteReg(R5, 0x00000000)
T1DA6C 000:560.187 - 0.007ms returns 0
T1DA6C 000:560.193 JLINK_WriteReg(R6, 0x00000000)
T1DA6C 000:560.199 - 0.007ms returns 0
T1DA6C 000:560.205 JLINK_WriteReg(R7, 0x00000000)
T1DA6C 000:560.210 - 0.007ms returns 0
T1DA6C 000:560.217 JLINK_WriteReg(R8, 0x00000000)
T1DA6C 000:560.222 - 0.007ms returns 0
T1DA6C 000:560.228 JLINK_WriteReg(R9, 0x200009D8)
T1DA6C 000:560.234 - 0.007ms returns 0
T1DA6C 000:560.240 JLINK_WriteReg(R10, 0x00000000)
T1DA6C 000:560.245 - 0.007ms returns 0
T1DA6C 000:560.252 JLINK_WriteReg(R11, 0x00000000)
T1DA6C 000:560.257 - 0.007ms returns 0
T1DA6C 000:560.264 JLINK_WriteReg(R12, 0x00000000)
T1DA6C 000:560.269 - 0.007ms returns 0
T1DA6C 000:560.275 JLINK_WriteReg(R13 (SP), 0x20004000)
T1DA6C 000:560.281 - 0.008ms returns 0
T1DA6C 000:560.287 JLINK_WriteReg(R14, 0x20000001)
T1DA6C 000:560.293 - 0.007ms returns 0
T1DA6C 000:560.299 JLINK_WriteReg(R15 (PC), 0x20000120)
T1DA6C 000:560.305 - 0.008ms returns 0
T1DA6C 000:560.311 JLINK_WriteReg(XPSR, 0x01000000)
T1DA6C 000:560.317 - 0.008ms returns 0
T1DA6C 000:560.323 JLINK_WriteReg(MSP, 0x20004000)
T1DA6C 000:560.328 - 0.007ms returns 0
T1DA6C 000:560.335 JLINK_WriteReg(PSP, 0x20004000)
T1DA6C 000:560.340 - 0.007ms returns 0
T1DA6C 000:560.346 JLINK_WriteReg(CFBP, 0x00000000)
T1DA6C 000:560.352 - 0.007ms returns 0
T1DA6C 000:560.358 JLINK_SetBPEx(Addr = 0x20000000, Type = 0xFFFFFFF2)
T1DA6C 000:560.364 - 0.008ms returns 0x00000003
T1DA6C 000:560.371 JLINK_Go()
T1DA6C 000:560.379   CPU_WriteMem(4 bytes @ 0xE0002000)
T1DA6C 000:560.896   CPU_ReadMem(4 bytes @ 0xE0001000)
T1DA6C 000:563.888 - 3.532ms
T1DA6C 000:563.912 JLINK_IsHalted()
T1DA6C 000:564.253 - 0.348ms returns FALSE
T1DA6C 000:564.268 JLINK_HasError()
T1DA6C 000:590.154 JLINK_IsHalted()
T1DA6C 000:590.688 - 0.552ms returns FALSE
T1DA6C 000:590.716 JLINK_HasError()
T1DA6C 000:592.119 JLINK_IsHalted()
T1DA6C 000:592.665 - 0.567ms returns FALSE
T1DA6C 000:592.699 JLINK_HasError()
T1DA6C 000:594.178 JLINK_IsHalted()
T1DA6C 000:594.738 - 0.578ms returns FALSE
T1DA6C 000:594.771 JLINK_HasError()
T1DA6C 000:596.356 JLINK_IsHalted()
T1DA6C 000:596.889 - 0.550ms returns FALSE
T1DA6C 000:596.916 JLINK_HasError()
T1DA6C 000:598.259 JLINK_IsHalted()
T1DA6C 000:598.673 - 0.421ms returns FALSE
T1DA6C 000:598.687 JLINK_HasError()
T1DA6C 000:600.342 JLINK_IsHalted()
T1DA6C 000:600.869 - 0.545ms returns FALSE
T1DA6C 000:600.897 JLINK_HasError()
T1DA6C 000:602.345 JLINK_IsHalted()
T1DA6C 000:602.875 - 0.549ms returns FALSE
T1DA6C 000:602.904 JLINK_HasError()
T1DA6C 000:604.316 JLINK_IsHalted()
T1DA6C 000:604.745 - 0.437ms returns FALSE
T1DA6C 000:604.761 JLINK_HasError()
T1DA6C 000:606.292 JLINK_IsHalted()
T1DA6C 000:606.727 - 0.443ms returns FALSE
T1DA6C 000:606.742 JLINK_HasError()
T1DA6C 000:608.320 JLINK_IsHalted()
T1DA6C 000:608.775 - 0.467ms returns FALSE
T1DA6C 000:608.810 JLINK_HasError()
T1DA6C 000:614.292 JLINK_IsHalted()
T1DA6C 000:614.773 - 0.489ms returns FALSE
T1DA6C 000:614.788 JLINK_HasError()
T1DA6C 000:616.301 JLINK_IsHalted()
T1DA6C 000:616.725 - 0.431ms returns FALSE
T1DA6C 000:616.738 JLINK_HasError()
T1DA6C 000:618.291 JLINK_IsHalted()
T1DA6C 000:618.746 - 0.471ms returns FALSE
T1DA6C 000:618.772 JLINK_HasError()
T1DA6C 000:620.342 JLINK_IsHalted()
T1DA6C 000:620.865 - 0.541ms returns FALSE
T1DA6C 000:620.911 JLINK_HasError()
T1DA6C 000:622.382 JLINK_IsHalted()
T1DA6C 000:622.909 - 0.544ms returns FALSE
T1DA6C 000:622.937 JLINK_HasError()
T1DA6C 000:624.371 JLINK_IsHalted()
T1DA6C 000:624.914 - 0.561ms returns FALSE
T1DA6C 000:624.942 JLINK_HasError()
T1DA6C 000:630.341 JLINK_IsHalted()
T1DA6C 000:633.226 - 2.902ms returns TRUE
T1DA6C 000:633.252 JLINK_ReadReg(R15 (PC))
T1DA6C 000:633.263   CPU_ReadMem(4 bytes @ 0xE000EE08)
T1DA6C 000:633.770 - 0.536ms returns 0x20000000
T1DA6C 000:633.798 JLINK_ClrBPEx(BPHandle = 0x00000003)
T1DA6C 000:633.808 - 0.012ms returns 0x00
T1DA6C 000:633.815 JLINK_ReadReg(R0)
T1DA6C 000:633.822 - 0.009ms returns 0x00000000
T1DA6C 000:634.398 JLINK_HasError()
T1DA6C 000:634.414 JLINK_WriteReg(R0, 0x00001000)
T1DA6C 000:634.424 - 0.012ms returns 0
T1DA6C 000:634.431 JLINK_WriteReg(R1, 0x00001000)
T1DA6C 000:634.437 - 0.008ms returns 0
T1DA6C 000:634.443 JLINK_WriteReg(R2, 0x000000FF)
T1DA6C 000:634.448 - 0.007ms returns 0
T1DA6C 000:634.455 JLINK_WriteReg(R3, 0x00000000)
T1DA6C 000:634.460 - 0.008ms returns 0
T1DA6C 000:634.467 JLINK_WriteReg(R4, 0x00000000)
T1DA6C 000:634.472 - 0.007ms returns 0
T1DA6C 000:634.479 JLINK_WriteReg(R5, 0x00000000)
T1DA6C 000:634.484 - 0.007ms returns 0
T1DA6C 000:634.490 JLINK_WriteReg(R6, 0x00000000)
T1DA6C 000:634.496 - 0.007ms returns 0
T1DA6C 000:634.502 JLINK_WriteReg(R7, 0x00000000)
T1DA6C 000:634.507 - 0.007ms returns 0
T1DA6C 000:634.514 JLINK_WriteReg(R8, 0x00000000)
T1DA6C 000:634.519 - 0.008ms returns 0
T1DA6C 000:634.526 JLINK_WriteReg(R9, 0x200009D8)
T1DA6C 000:634.531 - 0.007ms returns 0
T1DA6C 000:634.537 JLINK_WriteReg(R10, 0x00000000)
T1DA6C 000:634.543 - 0.007ms returns 0
T1DA6C 000:634.549 JLINK_WriteReg(R11, 0x00000000)
T1DA6C 000:634.555 - 0.007ms returns 0
T1DA6C 000:634.561 JLINK_WriteReg(R12, 0x00000000)
T1DA6C 000:634.566 - 0.007ms returns 0
T1DA6C 000:634.573 JLINK_WriteReg(R13 (SP), 0x20004000)
T1DA6C 000:634.597 - 0.028ms returns 0
T1DA6C 000:634.605 JLINK_WriteReg(R14, 0x20000001)
T1DA6C 000:634.611 - 0.008ms returns 0
T1DA6C 000:634.617 JLINK_WriteReg(R15 (PC), 0x20000020)
T1DA6C 000:634.623 - 0.008ms returns 0
T1DA6C 000:634.629 JLINK_WriteReg(XPSR, 0x01000000)
T1DA6C 000:634.635 - 0.007ms returns 0
T1DA6C 000:634.641 JLINK_WriteReg(MSP, 0x20004000)
T1DA6C 000:634.646 - 0.007ms returns 0
T1DA6C 000:634.653 JLINK_WriteReg(PSP, 0x20004000)
T1DA6C 000:634.658 - 0.007ms returns 0
T1DA6C 000:634.664 JLINK_WriteReg(CFBP, 0x00000000)
T1DA6C 000:634.670 - 0.007ms returns 0
T1DA6C 000:634.676 JLINK_SetBPEx(Addr = 0x20000000, Type = 0xFFFFFFF2)
T1DA6C 000:634.683 - 0.014ms returns 0x00000004
T1DA6C 000:634.698 JLINK_Go()
T1DA6C 000:634.707   CPU_WriteMem(4 bytes @ 0xE0002000)
T1DA6C 000:635.233   CPU_ReadMem(4 bytes @ 0xE0001000)
T1DA6C 000:638.583 - 3.903ms
T1DA6C 000:638.612 JLINK_IsHalted()
T1DA6C 000:641.610 - 3.014ms returns TRUE
T1DA6C 000:641.634 JLINK_ReadReg(R15 (PC))
T1DA6C 000:641.645   CPU_ReadMem(4 bytes @ 0xE000EE08)
T1DA6C 000:642.013 - 0.385ms returns 0x20000000
T1DA6C 000:642.027 JLINK_ClrBPEx(BPHandle = 0x00000004)
T1DA6C 000:642.034 - 0.010ms returns 0x00
T1DA6C 000:642.041 JLINK_ReadReg(R0)
T1DA6C 000:642.048 - 0.008ms returns 0x00000001
T1DA6C 000:642.055 JLINK_HasError()
T1DA6C 000:642.062 JLINK_WriteReg(R0, 0x00001000)
T1DA6C 000:642.068 - 0.008ms returns 0
T1DA6C 000:642.075 JLINK_WriteReg(R1, 0x00001000)
T1DA6C 000:642.080 - 0.007ms returns 0
T1DA6C 000:642.086 JLINK_WriteReg(R2, 0x000000FF)
T1DA6C 000:642.092 - 0.007ms returns 0
T1DA6C 000:642.098 JLINK_WriteReg(R3, 0x00000000)
T1DA6C 000:642.103 - 0.007ms returns 0
T1DA6C 000:642.110 JLINK_WriteReg(R4, 0x00000000)
T1DA6C 000:642.115 - 0.007ms returns 0
T1DA6C 000:642.121 JLINK_WriteReg(R5, 0x00000000)
T1DA6C 000:642.127 - 0.007ms returns 0
T1DA6C 000:642.133 JLINK_WriteReg(R6, 0x00000000)
T1DA6C 000:642.138 - 0.007ms returns 0
T1DA6C 000:642.145 JLINK_WriteReg(R7, 0x00000000)
T1DA6C 000:642.150 - 0.007ms returns 0
T1DA6C 000:642.156 JLINK_WriteReg(R8, 0x00000000)
T1DA6C 000:642.162 - 0.008ms returns 0
T1DA6C 000:642.168 JLINK_WriteReg(R9, 0x200009D8)
T1DA6C 000:642.174 - 0.007ms returns 0
T1DA6C 000:642.180 JLINK_WriteReg(R10, 0x00000000)
T1DA6C 000:642.185 - 0.007ms returns 0
T1DA6C 000:642.192 JLINK_WriteReg(R11, 0x00000000)
T1DA6C 000:642.200 - 0.011ms returns 0
T1DA6C 000:642.207 JLINK_WriteReg(R12, 0x00000000)
T1DA6C 000:642.212 - 0.007ms returns 0
T1DA6C 000:642.219 JLINK_WriteReg(R13 (SP), 0x20004000)
T1DA6C 000:642.225 - 0.008ms returns 0
T1DA6C 000:642.231 JLINK_WriteReg(R14, 0x20000001)
T1DA6C 000:642.236 - 0.007ms returns 0
T1DA6C 000:642.243 JLINK_WriteReg(R15 (PC), 0x20000120)
T1DA6C 000:642.248 - 0.008ms returns 0
T1DA6C 000:642.254 JLINK_WriteReg(XPSR, 0x01000000)
T1DA6C 000:642.260 - 0.008ms returns 0
T1DA6C 000:642.266 JLINK_WriteReg(MSP, 0x20004000)
T1DA6C 000:642.272 - 0.007ms returns 0
T1DA6C 000:642.278 JLINK_WriteReg(PSP, 0x20004000)
T1DA6C 000:642.283 - 0.007ms returns 0
T1DA6C 000:642.290 JLINK_WriteReg(CFBP, 0x00000000)
T1DA6C 000:642.295 - 0.007ms returns 0
T1DA6C 000:642.301 JLINK_SetBPEx(Addr = 0x20000000, Type = 0xFFFFFFF2)
T1DA6C 000:642.308 - 0.008ms returns 0x00000005
T1DA6C 000:642.314 JLINK_Go()
T1DA6C 000:642.322   CPU_WriteMem(4 bytes @ 0xE0002000)
T1DA6C 000:643.113   CPU_ReadMem(4 bytes @ 0xE0001000)
T1DA6C 000:647.005 - 4.708ms
T1DA6C 000:647.037 JLINK_IsHalted()
T1DA6C 000:647.820 - 0.801ms returns FALSE
T1DA6C 000:647.854 JLINK_HasError()
T1DA6C 000:654.484 JLINK_IsHalted()
T1DA6C 000:655.249 - 0.783ms returns FALSE
T1DA6C 000:655.277 JLINK_HasError()
T1DA6C 000:656.517 JLINK_IsHalted()
T1DA6C 000:656.984 - 0.479ms returns FALSE
T1DA6C 000:657.006 JLINK_HasError()
T1DA6C 000:665.218 JLINK_IsHalted()
T1DA6C 000:665.623 - 0.448ms returns FALSE
T1DA6C 000:665.677 JLINK_HasError()
T1DA6C 000:673.453 JLINK_IsHalted()
T1DA6C 000:674.266 - 0.831ms returns FALSE
T1DA6C 000:674.294 JLINK_HasError()
T1DA6C 000:675.583 JLINK_IsHalted()
T1DA6C 000:676.395 - 0.830ms returns FALSE
T1DA6C 000:676.423 JLINK_HasError()
T1DA6C 000:677.868 JLINK_IsHalted()
T1DA6C 000:678.648 - 0.800ms returns FALSE
T1DA6C 000:678.692 JLINK_HasError()
T1DA6C 000:679.876 JLINK_IsHalted()
T1DA6C 000:680.676 - 0.818ms returns FALSE
T1DA6C 000:680.704 JLINK_HasError()
T1DA6C 000:682.859 JLINK_IsHalted()
T1DA6C 000:683.643 - 0.802ms returns FALSE
T1DA6C 000:683.672 JLINK_HasError()
T1DA6C 000:684.898 JLINK_IsHalted()
T1DA6C 000:685.697 - 0.817ms returns FALSE
T1DA6C 000:685.726 JLINK_HasError()
T1DA6C 000:686.915 JLINK_IsHalted()
T1DA6C 000:687.722 - 0.828ms returns FALSE
T1DA6C 000:687.770 JLINK_HasError()
T1DA6C 000:693.573 JLINK_IsHalted()
T1DA6C 000:693.952 - 0.387ms returns FALSE
T1DA6C 000:693.967 JLINK_HasError()
T1DA6C 000:695.569 JLINK_IsHalted()
T1DA6C 000:695.985 - 0.423ms returns FALSE
T1DA6C 000:695.999 JLINK_HasError()
T1DA6C 000:697.901 JLINK_IsHalted()
T1DA6C 000:698.361 - 0.473ms returns FALSE
T1DA6C 000:698.386 JLINK_HasError()
T1DA6C 000:699.635 JLINK_IsHalted()
T1DA6C 000:700.425 - 0.808ms returns FALSE
T1DA6C 000:700.453 JLINK_HasError()
T1DA6C 000:701.647 JLINK_IsHalted()
T1DA6C 000:702.435 - 0.808ms returns FALSE
T1DA6C 000:702.479 JLINK_HasError()
T1DA6C 000:703.661 JLINK_IsHalted()
T1DA6C 000:704.055 - 0.403ms returns FALSE
T1DA6C 000:704.073 JLINK_HasError()
T1DA6C 000:709.362 JLINK_IsHalted()
T1DA6C 000:711.955 - 2.600ms returns TRUE
T1DA6C 000:711.970 JLINK_ReadReg(R15 (PC))
T1DA6C 000:711.980   CPU_ReadMem(4 bytes @ 0xE000EE08)
T1DA6C 000:712.327 - 0.364ms returns 0x20000000
T1DA6C 000:712.341 JLINK_ClrBPEx(BPHandle = 0x00000005)
T1DA6C 000:712.349 - 0.010ms returns 0x00
T1DA6C 000:712.356 JLINK_ReadReg(R0)
T1DA6C 000:712.362 - 0.009ms returns 0x00000000
T1DA6C 000:712.822 JLINK_HasError()
T1DA6C 000:712.833 JLINK_WriteReg(R0, 0x00002000)
T1DA6C 000:712.841 - 0.010ms returns 0
T1DA6C 000:712.848 JLINK_WriteReg(R1, 0x00001000)
T1DA6C 000:712.853 - 0.008ms returns 0
T1DA6C 000:712.860 JLINK_WriteReg(R2, 0x000000FF)
T1DA6C 000:712.865 - 0.008ms returns 0
T1DA6C 000:712.872 JLINK_WriteReg(R3, 0x00000000)
T1DA6C 000:712.877 - 0.007ms returns 0
T1DA6C 000:712.883 JLINK_WriteReg(R4, 0x00000000)
T1DA6C 000:712.889 - 0.007ms returns 0
T1DA6C 000:712.895 JLINK_WriteReg(R5, 0x00000000)
T1DA6C 000:712.901 - 0.007ms returns 0
T1DA6C 000:712.907 JLINK_WriteReg(R6, 0x00000000)
T1DA6C 000:712.912 - 0.007ms returns 0
T1DA6C 000:712.919 JLINK_WriteReg(R7, 0x00000000)
T1DA6C 000:712.924 - 0.007ms returns 0
T1DA6C 000:712.931 JLINK_WriteReg(R8, 0x00000000)
T1DA6C 000:712.936 - 0.007ms returns 0
T1DA6C 000:712.942 JLINK_WriteReg(R9, 0x200009D8)
T1DA6C 000:712.948 - 0.007ms returns 0
T1DA6C 000:712.954 JLINK_WriteReg(R10, 0x00000000)
T1DA6C 000:712.960 - 0.008ms returns 0
T1DA6C 000:712.966 JLINK_WriteReg(R11, 0x00000000)
T1DA6C 000:712.971 - 0.007ms returns 0
T1DA6C 000:712.978 JLINK_WriteReg(R12, 0x00000000)
T1DA6C 000:712.983 - 0.007ms returns 0
T1DA6C 000:712.990 JLINK_WriteReg(R13 (SP), 0x20004000)
T1DA6C 000:712.996 - 0.008ms returns 0
T1DA6C 000:713.002 JLINK_WriteReg(R14, 0x20000001)
T1DA6C 000:713.007 - 0.007ms returns 0
T1DA6C 000:713.014 JLINK_WriteReg(R15 (PC), 0x20000020)
T1DA6C 000:713.019 - 0.007ms returns 0
T1DA6C 000:713.026 JLINK_WriteReg(XPSR, 0x01000000)
T1DA6C 000:713.031 - 0.008ms returns 0
T1DA6C 000:713.038 JLINK_WriteReg(MSP, 0x20004000)
T1DA6C 000:713.043 - 0.008ms returns 0
T1DA6C 000:713.050 JLINK_WriteReg(PSP, 0x20004000)
T1DA6C 000:713.055 - 0.007ms returns 0
T1DA6C 000:713.061 JLINK_WriteReg(CFBP, 0x00000000)
T1DA6C 000:713.067 - 0.007ms returns 0
T1DA6C 000:713.073 JLINK_SetBPEx(Addr = 0x20000000, Type = 0xFFFFFFF2)
T1DA6C 000:713.079 - 0.008ms returns 0x00000006
T1DA6C 000:713.086 JLINK_Go()
T1DA6C 000:713.094   CPU_WriteMem(4 bytes @ 0xE0002000)
T1DA6C 000:713.566   CPU_ReadMem(4 bytes @ 0xE0001000)
T1DA6C 000:717.460 - 4.391ms
T1DA6C 000:717.488 JLINK_IsHalted()
T1DA6C 000:720.155 - 2.678ms returns TRUE
T1DA6C 000:720.174 JLINK_ReadReg(R15 (PC))
T1DA6C 000:720.184   CPU_ReadMem(4 bytes @ 0xE000EE08)
T1DA6C 000:720.617 - 0.454ms returns 0x20000000
T1DA6C 000:720.635 JLINK_ClrBPEx(BPHandle = 0x00000006)
T1DA6C 000:720.643 - 0.010ms returns 0x00
T1DA6C 000:720.651 JLINK_ReadReg(R0)
T1DA6C 000:720.657 - 0.009ms returns 0x00000001
T1DA6C 000:720.665 JLINK_HasError()
T1DA6C 000:720.672 JLINK_WriteReg(R0, 0x00002000)
T1DA6C 000:720.679 - 0.008ms returns 0
T1DA6C 000:720.685 JLINK_WriteReg(R1, 0x00001000)
T1DA6C 000:720.691 - 0.007ms returns 0
T1DA6C 000:720.697 JLINK_WriteReg(R2, 0x000000FF)
T1DA6C 000:720.703 - 0.008ms returns 0
T1DA6C 000:720.709 JLINK_WriteReg(R3, 0x00000000)
T1DA6C 000:720.715 - 0.051ms returns 0
T1DA6C 000:720.769 JLINK_WriteReg(R4, 0x00000000)
T1DA6C 000:720.775 - 0.009ms returns 0
T1DA6C 000:720.782 JLINK_WriteReg(R5, 0x00000000)
T1DA6C 000:720.787 - 0.007ms returns 0
T1DA6C 000:720.794 JLINK_WriteReg(R6, 0x00000000)
T1DA6C 000:720.799 - 0.007ms returns 0
T1DA6C 000:720.805 JLINK_WriteReg(R7, 0x00000000)
T1DA6C 000:720.811 - 0.007ms returns 0
T1DA6C 000:720.817 JLINK_WriteReg(R8, 0x00000000)
T1DA6C 000:720.823 - 0.008ms returns 0
T1DA6C 000:720.829 JLINK_WriteReg(R9, 0x200009D8)
T1DA6C 000:720.835 - 0.008ms returns 0
T1DA6C 000:720.841 JLINK_WriteReg(R10, 0x00000000)
T1DA6C 000:720.846 - 0.007ms returns 0
T1DA6C 000:720.853 JLINK_WriteReg(R11, 0x00000000)
T1DA6C 000:720.858 - 0.007ms returns 0
T1DA6C 000:720.865 JLINK_WriteReg(R12, 0x00000000)
T1DA6C 000:720.870 - 0.007ms returns 0
T1DA6C 000:720.877 JLINK_WriteReg(R13 (SP), 0x20004000)
T1DA6C 000:720.883 - 0.008ms returns 0
T1DA6C 000:720.889 JLINK_WriteReg(R14, 0x20000001)
T1DA6C 000:720.894 - 0.007ms returns 0
T1DA6C 000:720.901 JLINK_WriteReg(R15 (PC), 0x20000120)
T1DA6C 000:720.906 - 0.008ms returns 0
T1DA6C 000:720.913 JLINK_WriteReg(XPSR, 0x01000000)
T1DA6C 000:720.918 - 0.008ms returns 0
T1DA6C 000:720.924 JLINK_WriteReg(MSP, 0x20004000)
T1DA6C 000:720.930 - 0.008ms returns 0
T1DA6C 000:720.936 JLINK_WriteReg(PSP, 0x20004000)
T1DA6C 000:720.942 - 0.007ms returns 0
T1DA6C 000:720.948 JLINK_WriteReg(CFBP, 0x00000000)
T1DA6C 000:720.953 - 0.007ms returns 0
T1DA6C 000:720.960 JLINK_SetBPEx(Addr = 0x20000000, Type = 0xFFFFFFF2)
T1DA6C 000:720.966 - 0.008ms returns 0x00000007
T1DA6C 000:720.973 JLINK_Go()
T1DA6C 000:720.981   CPU_WriteMem(4 bytes @ 0xE0002000)
T1DA6C 000:721.420   CPU_ReadMem(4 bytes @ 0xE0001000)
T1DA6C 000:724.344 - 3.381ms
T1DA6C 000:724.365 JLINK_IsHalted()
T1DA6C 000:724.697 - 0.340ms returns FALSE
T1DA6C 000:724.715 JLINK_HasError()
T1DA6C 000:729.769 JLINK_IsHalted()
T1DA6C 000:730.244 - 0.482ms returns FALSE
T1DA6C 000:730.258 JLINK_HasError()
T1DA6C 000:731.660 JLINK_IsHalted()
T1DA6C 000:732.009 - 0.356ms returns FALSE
T1DA6C 000:732.023 JLINK_HasError()
T1DA6C 000:733.764 JLINK_IsHalted()
T1DA6C 000:734.242 - 0.485ms returns FALSE
T1DA6C 000:734.256 JLINK_HasError()
T1DA6C 000:735.730 JLINK_IsHalted()
T1DA6C 000:736.052 - 0.329ms returns FALSE
T1DA6C 000:736.066 JLINK_HasError()
T1DA6C 000:740.941 JLINK_IsHalted()
T1DA6C 000:741.723 - 0.800ms returns FALSE
T1DA6C 000:741.751 JLINK_HasError()
T1DA6C 000:742.988 JLINK_IsHalted()
T1DA6C 000:743.777 - 0.806ms returns FALSE
T1DA6C 000:743.805 JLINK_HasError()
T1DA6C 000:745.749 JLINK_IsHalted()
T1DA6C 000:746.246 - 0.505ms returns FALSE
T1DA6C 000:746.262 JLINK_HasError()
T1DA6C 000:747.749 JLINK_IsHalted()
T1DA6C 000:748.226 - 0.484ms returns FALSE
T1DA6C 000:748.241 JLINK_HasError()
T1DA6C 000:749.819 JLINK_IsHalted()
T1DA6C 000:750.245 - 0.434ms returns FALSE
T1DA6C 000:750.261 JLINK_HasError()
T1DA6C 000:751.664 JLINK_IsHalted()
T1DA6C 000:752.081 - 0.426ms returns FALSE
T1DA6C 000:752.114 JLINK_HasError()
T1DA6C 000:760.100 JLINK_IsHalted()
T1DA6C 000:760.886 - 0.803ms returns FALSE
T1DA6C 000:760.914 JLINK_HasError()
T1DA6C 000:762.200 JLINK_IsHalted()
T1DA6C 000:762.991 - 0.809ms returns FALSE
T1DA6C 000:763.019 JLINK_HasError()
T1DA6C 000:764.316 JLINK_IsHalted()
T1DA6C 000:765.104 - 0.807ms returns FALSE
T1DA6C 000:765.134 JLINK_HasError()
T1DA6C 000:766.322 JLINK_IsHalted()
T1DA6C 000:767.081 - 0.776ms returns FALSE
T1DA6C 000:767.109 JLINK_HasError()
T1DA6C 000:779.365 JLINK_IsHalted()
T1DA6C 000:780.136 - 0.788ms returns FALSE
T1DA6C 000:780.164 JLINK_HasError()
T1DA6C 000:781.375 JLINK_IsHalted()
T1DA6C 000:781.754 - 0.388ms returns FALSE
T1DA6C 000:781.789 JLINK_HasError()
T1DA6C 000:783.336 JLINK_IsHalted()
T1DA6C 000:784.137 - 0.835ms returns FALSE
T1DA6C 000:784.181 JLINK_HasError()
T1DA6C 000:785.371 JLINK_IsHalted()
T1DA6C 000:788.438 - 3.084ms returns TRUE
T1DA6C 000:788.464 JLINK_ReadReg(R15 (PC))
T1DA6C 000:788.475   CPU_ReadMem(4 bytes @ 0xE000EE08)
T1DA6C 000:789.256 - 0.824ms returns 0x20000000
T1DA6C 000:789.298 JLINK_ClrBPEx(BPHandle = 0x00000007)
T1DA6C 000:789.308 - 0.012ms returns 0x00
T1DA6C 000:789.315 JLINK_ReadReg(R0)
T1DA6C 000:789.322 - 0.009ms returns 0x00000000
T1DA6C 000:789.864 JLINK_HasError()
T1DA6C 000:789.879 JLINK_WriteReg(R0, 0x00003000)
T1DA6C 000:789.888 - 0.011ms returns 0
T1DA6C 000:789.895 JLINK_WriteReg(R1, 0x00001000)
T1DA6C 000:789.900 - 0.008ms returns 0
T1DA6C 000:789.907 JLINK_WriteReg(R2, 0x000000FF)
T1DA6C 000:789.912 - 0.008ms returns 0
T1DA6C 000:789.918 JLINK_WriteReg(R3, 0x00000000)
T1DA6C 000:789.924 - 0.007ms returns 0
T1DA6C 000:789.930 JLINK_WriteReg(R4, 0x00000000)
T1DA6C 000:789.936 - 0.008ms returns 0
T1DA6C 000:789.942 JLINK_WriteReg(R5, 0x00000000)
T1DA6C 000:789.948 - 0.007ms returns 0
T1DA6C 000:789.954 JLINK_WriteReg(R6, 0x00000000)
T1DA6C 000:789.959 - 0.007ms returns 0
T1DA6C 000:789.966 JLINK_WriteReg(R7, 0x00000000)
T1DA6C 000:789.971 - 0.007ms returns 0
T1DA6C 000:789.977 JLINK_WriteReg(R8, 0x00000000)
T1DA6C 000:789.983 - 0.007ms returns 0
T1DA6C 000:789.989 JLINK_WriteReg(R9, 0x200009D8)
T1DA6C 000:789.995 - 0.007ms returns 0
T1DA6C 000:790.001 JLINK_WriteReg(R10, 0x00000000)
T1DA6C 000:790.006 - 0.007ms returns 0
T1DA6C 000:790.013 JLINK_WriteReg(R11, 0x00000000)
T1DA6C 000:790.018 - 0.007ms returns 0
T1DA6C 000:790.024 JLINK_WriteReg(R12, 0x00000000)
T1DA6C 000:790.030 - 0.007ms returns 0
T1DA6C 000:790.036 JLINK_WriteReg(R13 (SP), 0x20004000)
T1DA6C 000:790.042 - 0.008ms returns 0
T1DA6C 000:790.048 JLINK_WriteReg(R14, 0x20000001)
T1DA6C 000:790.054 - 0.007ms returns 0
T1DA6C 000:790.060 JLINK_WriteReg(R15 (PC), 0x20000020)
T1DA6C 000:790.066 - 0.008ms returns 0
T1DA6C 000:790.072 JLINK_WriteReg(XPSR, 0x01000000)
T1DA6C 000:790.078 - 0.007ms returns 0
T1DA6C 000:790.084 JLINK_WriteReg(MSP, 0x20004000)
T1DA6C 000:790.089 - 0.007ms returns 0
T1DA6C 000:790.096 JLINK_WriteReg(PSP, 0x20004000)
T1DA6C 000:790.101 - 0.007ms returns 0
T1DA6C 000:790.107 JLINK_WriteReg(CFBP, 0x00000000)
T1DA6C 000:790.113 - 0.012ms returns 0
T1DA6C 000:790.123 JLINK_SetBPEx(Addr = 0x20000000, Type = 0xFFFFFFF2)
T1DA6C 000:790.130 - 0.009ms returns 0x00000008
T1DA6C 000:790.137 JLINK_Go()
T1DA6C 000:790.145   CPU_WriteMem(4 bytes @ 0xE0002000)
T1DA6C 000:790.963   CPU_ReadMem(4 bytes @ 0xE0001000)
T1DA6C 000:794.834 - 4.715ms
T1DA6C 000:794.861 JLINK_IsHalted()
T1DA6C 000:797.499 - 2.654ms returns TRUE
T1DA6C 000:797.527 JLINK_ReadReg(R15 (PC))
T1DA6C 000:797.542   CPU_ReadMem(4 bytes @ 0xE000EE08)
T1DA6C 000:797.925 - 0.412ms returns 0x20000000
T1DA6C 000:797.949 JLINK_ClrBPEx(BPHandle = 0x00000008)
T1DA6C 000:797.958 - 0.012ms returns 0x00
T1DA6C 000:797.966 JLINK_ReadReg(R0)
T1DA6C 000:797.973 - 0.009ms returns 0x00000001
T1DA6C 000:797.980 JLINK_HasError()
T1DA6C 000:797.988 JLINK_WriteReg(R0, 0x00003000)
T1DA6C 000:797.994 - 0.009ms returns 0
T1DA6C 000:798.001 JLINK_WriteReg(R1, 0x00001000)
T1DA6C 000:798.007 - 0.008ms returns 0
T1DA6C 000:798.013 JLINK_WriteReg(R2, 0x000000FF)
T1DA6C 000:798.019 - 0.008ms returns 0
T1DA6C 000:798.025 JLINK_WriteReg(R3, 0x00000000)
T1DA6C 000:798.031 - 0.008ms returns 0
T1DA6C 000:798.037 JLINK_WriteReg(R4, 0x00000000)
T1DA6C 000:798.043 - 0.008ms returns 0
T1DA6C 000:798.049 JLINK_WriteReg(R5, 0x00000000)
T1DA6C 000:798.055 - 0.008ms returns 0
T1DA6C 000:798.062 JLINK_WriteReg(R6, 0x00000000)
T1DA6C 000:798.068 - 0.008ms returns 0
T1DA6C 000:798.074 JLINK_WriteReg(R7, 0x00000000)
T1DA6C 000:798.080 - 0.008ms returns 0
T1DA6C 000:798.086 JLINK_WriteReg(R8, 0x00000000)
T1DA6C 000:798.092 - 0.007ms returns 0
T1DA6C 000:798.098 JLINK_WriteReg(R9, 0x200009D8)
T1DA6C 000:798.104 - 0.008ms returns 0
T1DA6C 000:798.110 JLINK_WriteReg(R10, 0x00000000)
T1DA6C 000:798.121 - 0.013ms returns 0
T1DA6C 000:798.128 JLINK_WriteReg(R11, 0x00000000)
T1DA6C 000:798.134 - 0.008ms returns 0
T1DA6C 000:798.140 JLINK_WriteReg(R12, 0x00000000)
T1DA6C 000:798.145 - 0.008ms returns 0
T1DA6C 000:798.152 JLINK_WriteReg(R13 (SP), 0x20004000)
T1DA6C 000:798.162 - 0.017ms returns 0
T1DA6C 000:798.174 JLINK_WriteReg(R14, 0x20000001)
T1DA6C 000:798.180 - 0.008ms returns 0
T1DA6C 000:798.187 JLINK_WriteReg(R15 (PC), 0x20000120)
T1DA6C 000:798.193 - 0.010ms returns 0
T1DA6C 000:798.202 JLINK_WriteReg(XPSR, 0x01000000)
T1DA6C 000:798.211 - 0.012ms returns 0
T1DA6C 000:798.218 JLINK_WriteReg(MSP, 0x20004000)
T1DA6C 000:798.223 - 0.008ms returns 0
T1DA6C 000:798.230 JLINK_WriteReg(PSP, 0x20004000)
T1DA6C 000:798.236 - 0.009ms returns 0
T1DA6C 000:798.267 JLINK_WriteReg(CFBP, 0x00000000)
T1DA6C 000:798.274 - 0.010ms returns 0
T1DA6C 000:798.299 JLINK_SetBPEx(Addr = 0x20000000, Type = 0xFFFFFFF2)
T1DA6C 000:798.307 - 0.012ms returns 0x00000009
T1DA6C 000:798.331 JLINK_Go()
T1DA6C 000:798.346   CPU_WriteMem(4 bytes @ 0xE0002000)
T1DA6C 000:798.813   CPU_ReadMem(4 bytes @ 0xE0001000)
T1DA6C 000:801.670 - 3.349ms
T1DA6C 000:801.693 JLINK_IsHalted()
T1DA6C 000:802.025 - 0.340ms returns FALSE
T1DA6C 000:802.043 JLINK_HasError()
T1DA6C 000:807.428 JLINK_IsHalted()
T1DA6C 000:808.190 - 0.779ms returns FALSE
T1DA6C 000:808.218 JLINK_HasError()
T1DA6C 000:809.449 JLINK_IsHalted()
T1DA6C 000:810.230 - 0.799ms returns FALSE
T1DA6C 000:810.258 JLINK_HasError()
T1DA6C 000:811.445 JLINK_IsHalted()
T1DA6C 000:812.233 - 0.820ms returns FALSE
T1DA6C 000:812.289 JLINK_HasError()
T1DA6C 000:813.477 JLINK_IsHalted()
T1DA6C 000:813.964 - 0.501ms returns FALSE
T1DA6C 000:813.987 JLINK_HasError()
T1DA6C 000:819.432 JLINK_IsHalted()
T1DA6C 000:820.195 - 0.781ms returns FALSE
T1DA6C 000:820.223 JLINK_HasError()
T1DA6C 000:821.445 JLINK_IsHalted()
T1DA6C 000:822.222 - 0.795ms returns FALSE
T1DA6C 000:822.251 JLINK_HasError()
T1DA6C 000:823.444 JLINK_IsHalted()
T1DA6C 000:824.234 - 0.812ms returns FALSE
T1DA6C 000:824.280 JLINK_HasError()
T1DA6C 000:825.448 JLINK_IsHalted()
T1DA6C 000:826.207 - 0.776ms returns FALSE
T1DA6C 000:826.235 JLINK_HasError()
T1DA6C 000:827.970 JLINK_IsHalted()
T1DA6C 000:828.763 - 0.823ms returns FALSE
T1DA6C 000:828.807 JLINK_HasError()
T1DA6C 000:833.980 JLINK_IsHalted()
T1DA6C 000:834.757 - 0.796ms returns FALSE
T1DA6C 000:834.786 JLINK_HasError()
T1DA6C 000:836.008 JLINK_IsHalted()
T1DA6C 000:836.795 - 0.805ms returns FALSE
T1DA6C 000:836.823 JLINK_HasError()
T1DA6C 000:837.964 JLINK_IsHalted()
T1DA6C 000:838.731 - 0.785ms returns FALSE
T1DA6C 000:838.760 JLINK_HasError()
T1DA6C 000:839.988 JLINK_IsHalted()
T1DA6C 000:840.744 - 0.774ms returns FALSE
T1DA6C 000:840.772 JLINK_HasError()
T1DA6C 000:842.009 JLINK_IsHalted()
T1DA6C 000:842.802 - 0.810ms returns FALSE
T1DA6C 000:842.830 JLINK_HasError()
T1DA6C 000:844.075 JLINK_IsHalted()
T1DA6C 000:844.499 - 0.439ms returns FALSE
T1DA6C 000:844.524 JLINK_HasError()
T1DA6C 000:858.052 JLINK_IsHalted()
T1DA6C 000:858.807 - 0.773ms returns FALSE
T1DA6C 000:858.835 JLINK_HasError()
T1DA6C 000:860.079 JLINK_IsHalted()
T1DA6C 000:860.882 - 0.820ms returns FALSE
T1DA6C 000:860.910 JLINK_HasError()
T1DA6C 000:862.190 JLINK_IsHalted()
T1DA6C 000:862.955 - 0.782ms returns FALSE
T1DA6C 000:862.983 JLINK_HasError()
T1DA6C 000:864.197 JLINK_IsHalted()
T1DA6C 000:867.516 - 3.337ms returns TRUE
T1DA6C 000:867.543 JLINK_ReadReg(R15 (PC))
T1DA6C 000:867.553   CPU_ReadMem(4 bytes @ 0xE000EE08)
T1DA6C 000:868.311 - 0.786ms returns 0x20000000
T1DA6C 000:868.339 JLINK_ClrBPEx(BPHandle = 0x00000009)
T1DA6C 000:868.366 - 0.031ms returns 0x00
T1DA6C 000:868.375 JLINK_ReadReg(R0)
T1DA6C 000:868.382 - 0.009ms returns 0x00000000
T1DA6C 000:868.918 JLINK_HasError()
T1DA6C 000:868.933 JLINK_WriteReg(R0, 0x00004000)
T1DA6C 000:868.942 - 0.011ms returns 0
T1DA6C 000:868.949 JLINK_WriteReg(R1, 0x00001000)
T1DA6C 000:868.955 - 0.008ms returns 0
T1DA6C 000:868.961 JLINK_WriteReg(R2, 0x000000FF)
T1DA6C 000:868.967 - 0.008ms returns 0
T1DA6C 000:868.973 JLINK_WriteReg(R3, 0x00000000)
T1DA6C 000:868.979 - 0.007ms returns 0
T1DA6C 000:868.985 JLINK_WriteReg(R4, 0x00000000)
T1DA6C 000:868.991 - 0.007ms returns 0
T1DA6C 000:868.997 JLINK_WriteReg(R5, 0x00000000)
T1DA6C 000:869.008 - 0.016ms returns 0
T1DA6C 000:869.017 JLINK_WriteReg(R6, 0x00000000)
T1DA6C 000:869.023 - 0.008ms returns 0
T1DA6C 000:869.029 JLINK_WriteReg(R7, 0x00000000)
T1DA6C 000:869.035 - 0.007ms returns 0
T1DA6C 000:869.041 JLINK_WriteReg(R8, 0x00000000)
T1DA6C 000:869.046 - 0.008ms returns 0
T1DA6C 000:869.053 JLINK_WriteReg(R9, 0x200009D8)
T1DA6C 000:869.058 - 0.007ms returns 0
T1DA6C 000:869.065 JLINK_WriteReg(R10, 0x00000000)
T1DA6C 000:869.070 - 0.007ms returns 0
T1DA6C 000:869.076 JLINK_WriteReg(R11, 0x00000000)
T1DA6C 000:869.082 - 0.007ms returns 0
T1DA6C 000:869.088 JLINK_WriteReg(R12, 0x00000000)
T1DA6C 000:869.094 - 0.007ms returns 0
T1DA6C 000:869.100 JLINK_WriteReg(R13 (SP), 0x20004000)
T1DA6C 000:869.106 - 0.009ms returns 0
T1DA6C 000:869.113 JLINK_WriteReg(R14, 0x20000001)
T1DA6C 000:869.118 - 0.008ms returns 0
T1DA6C 000:869.125 JLINK_WriteReg(R15 (PC), 0x20000020)
T1DA6C 000:869.130 - 0.008ms returns 0
T1DA6C 000:869.137 JLINK_WriteReg(XPSR, 0x01000000)
T1DA6C 000:869.142 - 0.008ms returns 0
T1DA6C 000:869.148 JLINK_WriteReg(MSP, 0x20004000)
T1DA6C 000:869.154 - 0.007ms returns 0
T1DA6C 000:869.160 JLINK_WriteReg(PSP, 0x20004000)
T1DA6C 000:869.166 - 0.007ms returns 0
T1DA6C 000:869.172 JLINK_WriteReg(CFBP, 0x00000000)
T1DA6C 000:869.177 - 0.007ms returns 0
T1DA6C 000:869.184 JLINK_SetBPEx(Addr = 0x20000000, Type = 0xFFFFFFF2)
T1DA6C 000:869.191 - 0.009ms returns 0x0000000A
T1DA6C 000:869.197 JLINK_Go()
T1DA6C 000:869.206   CPU_WriteMem(4 bytes @ 0xE0002000)
T1DA6C 000:870.008   CPU_ReadMem(4 bytes @ 0xE0001000)
T1DA6C 000:873.717 - 4.538ms
T1DA6C 000:873.745 JLINK_IsHalted()
T1DA6C 000:876.900 - 3.185ms returns TRUE
T1DA6C 000:876.939 JLINK_ReadReg(R15 (PC))
T1DA6C 000:876.950   CPU_ReadMem(4 bytes @ 0xE000EE08)
T1DA6C 000:877.690 - 0.770ms returns 0x20000000
T1DA6C 000:877.719 JLINK_ClrBPEx(BPHandle = 0x0000000A)
T1DA6C 000:877.729 - 0.013ms returns 0x00
T1DA6C 000:877.736 JLINK_ReadReg(R0)
T1DA6C 000:877.743 - 0.009ms returns 0x00000001
T1DA6C 000:877.751 JLINK_HasError()
T1DA6C 000:877.758 JLINK_WriteReg(R0, 0x00004000)
T1DA6C 000:877.765 - 0.008ms returns 0
T1DA6C 000:877.771 JLINK_WriteReg(R1, 0x00001000)
T1DA6C 000:877.777 - 0.008ms returns 0
T1DA6C 000:877.783 JLINK_WriteReg(R2, 0x000000FF)
T1DA6C 000:877.788 - 0.007ms returns 0
T1DA6C 000:877.795 JLINK_WriteReg(R3, 0x00000000)
T1DA6C 000:877.800 - 0.007ms returns 0
T1DA6C 000:877.806 JLINK_WriteReg(R4, 0x00000000)
T1DA6C 000:877.812 - 0.007ms returns 0
T1DA6C 000:877.818 JLINK_WriteReg(R5, 0x00000000)
T1DA6C 000:877.824 - 0.007ms returns 0
T1DA6C 000:877.830 JLINK_WriteReg(R6, 0x00000000)
T1DA6C 000:877.835 - 0.007ms returns 0
T1DA6C 000:877.842 JLINK_WriteReg(R7, 0x00000000)
T1DA6C 000:877.847 - 0.007ms returns 0
T1DA6C 000:877.854 JLINK_WriteReg(R8, 0x00000000)
T1DA6C 000:877.859 - 0.007ms returns 0
T1DA6C 000:877.865 JLINK_WriteReg(R9, 0x200009D8)
T1DA6C 000:877.871 - 0.007ms returns 0
T1DA6C 000:877.877 JLINK_WriteReg(R10, 0x00000000)
T1DA6C 000:877.882 - 0.007ms returns 0
T1DA6C 000:877.889 JLINK_WriteReg(R11, 0x00000000)
T1DA6C 000:877.894 - 0.007ms returns 0
T1DA6C 000:877.900 JLINK_WriteReg(R12, 0x00000000)
T1DA6C 000:877.906 - 0.007ms returns 0
T1DA6C 000:877.912 JLINK_WriteReg(R13 (SP), 0x20004000)
T1DA6C 000:877.918 - 0.008ms returns 0
T1DA6C 000:877.924 JLINK_WriteReg(R14, 0x20000001)
T1DA6C 000:877.930 - 0.007ms returns 0
T1DA6C 000:877.936 JLINK_WriteReg(R15 (PC), 0x20000120)
T1DA6C 000:877.942 - 0.008ms returns 0
T1DA6C 000:877.948 JLINK_WriteReg(XPSR, 0x01000000)
T1DA6C 000:877.954 - 0.007ms returns 0
T1DA6C 000:877.960 JLINK_WriteReg(MSP, 0x20004000)
T1DA6C 000:877.965 - 0.008ms returns 0
T1DA6C 000:877.972 JLINK_WriteReg(PSP, 0x20004000)
T1DA6C 000:877.977 - 0.007ms returns 0
T1DA6C 000:877.984 JLINK_WriteReg(CFBP, 0x00000000)
T1DA6C 000:877.989 - 0.007ms returns 0
T1DA6C 000:877.995 JLINK_SetBPEx(Addr = 0x20000000, Type = 0xFFFFFFF2)
T1DA6C 000:878.002 - 0.008ms returns 0x0000000B
T1DA6C 000:878.008 JLINK_Go()
T1DA6C 000:878.017   CPU_WriteMem(4 bytes @ 0xE0002000)
T1DA6C 000:878.785   CPU_ReadMem(4 bytes @ 0xE0001000)
T1DA6C 000:882.446 - 4.453ms
T1DA6C 000:882.475 JLINK_IsHalted()
T1DA6C 000:882.957 - 0.488ms returns FALSE
T1DA6C 000:882.974 JLINK_HasError()
T1DA6C 000:887.654 JLINK_IsHalted()
T1DA6C 000:888.071 - 0.427ms returns FALSE
T1DA6C 000:888.090 JLINK_HasError()
T1DA6C 000:889.743 JLINK_IsHalted()
T1DA6C 000:890.182 - 0.447ms returns FALSE
T1DA6C 000:890.197 JLINK_HasError()
T1DA6C 000:891.943 JLINK_IsHalted()
T1DA6C 000:892.304 - 0.370ms returns FALSE
T1DA6C 000:892.320 JLINK_HasError()
T1DA6C 000:897.259 JLINK_IsHalted()
T1DA6C 000:898.024 - 0.782ms returns FALSE
T1DA6C 000:898.052 JLINK_HasError()
T1DA6C 000:900.083 JLINK_IsHalted()
T1DA6C 000:900.537 - 0.460ms returns FALSE
T1DA6C 000:900.551 JLINK_HasError()
T1DA6C 000:902.057 JLINK_IsHalted()
T1DA6C 000:902.475 - 0.425ms returns FALSE
T1DA6C 000:902.489 JLINK_HasError()
T1DA6C 000:904.075 JLINK_IsHalted()
T1DA6C 000:904.474 - 0.406ms returns FALSE
T1DA6C 000:904.488 JLINK_HasError()
T1DA6C 000:906.078 JLINK_IsHalted()
T1DA6C 000:906.489 - 0.418ms returns FALSE
T1DA6C 000:906.503 JLINK_HasError()
T1DA6C 000:911.607 JLINK_IsHalted()
T1DA6C 000:912.397 - 0.808ms returns FALSE
T1DA6C 000:912.425 JLINK_HasError()
T1DA6C 000:913.708 JLINK_IsHalted()
T1DA6C 000:914.485 - 0.795ms returns FALSE
T1DA6C 000:914.513 JLINK_HasError()
T1DA6C 000:916.764 JLINK_IsHalted()
T1DA6C 000:917.565 - 0.819ms returns FALSE
T1DA6C 000:917.593 JLINK_HasError()
T1DA6C 000:918.868 JLINK_IsHalted()
T1DA6C 000:919.658 - 0.808ms returns FALSE
T1DA6C 000:919.686 JLINK_HasError()
T1DA6C 000:920.866 JLINK_IsHalted()
T1DA6C 000:921.678 - 0.842ms returns FALSE
T1DA6C 000:921.719 JLINK_HasError()
T1DA6C 000:927.914 JLINK_IsHalted()
T1DA6C 000:928.686 - 0.790ms returns FALSE
T1DA6C 000:928.715 JLINK_HasError()
T1DA6C 000:930.195 JLINK_IsHalted()
